T1558 000:039.502   SEGGER J-Link V6.86d Log File
T1558 000:039.645   DLL Compiled: Oct  9 2020 16:15:12
T1558 000:039.651   Logging started @ 2023-08-02 06:45
T1558 000:039.656 - 39.660ms
T1558 000:039.667 JLINK_SetWarnOutHandler(...)
T1558 000:039.674 - 0.010ms
T1558 000:039.682 JLINK_OpenEx(...)
T1558 000:040.823   Firmware: J-Link ARM V8 compiled Nov 28 2014 13:44:46
T1558 000:043.702   Hardware: V8.00
T1558 000:043.725   S/N: 17935099
T1558 000:043.733   OEM: SEGGER
T1558 000:043.741   Feature(s): RDI,FlashDL,FlashBP,JFlash
T1558 000:045.235   TELNET listener socket opened on port 19021
T1558 000:045.368   WEBSRV Starting webserver
T1558 000:045.548   WEBSRV Webserver running on local port 19080
T1558 000:045.559 - 5.880ms returns "O.K."
T1558 000:045.576 JLINK_SetErrorOutHandler(...)
T1558 000:045.583 - 0.009ms
T1558 000:045.597 JLINK_ExecCommand("ProjectFile = "F:\Desktop\fff\·½°¸¶þ\SEN0593\JLinkSettings.ini"", ...). 
T1558 000:053.466   Ref file found at: H:\keil5\ARM\Segger\JLinkDevices.ref
T1558 000:053.562   REF file references invalid XML file: C:\Program Files (x86)\SEGGER\JLink\JLinkDevices.xml
T1558 000:062.504   Device "CS32F103C8" selected.
T1558 000:062.830 - 17.239ms returns 0x00
T1558 000:067.720 JLINK_ExecCommand("Device = CS32L010", ...). 
T1558 000:073.866   Device "CS32F103C8" selected.
T1558 000:074.270 - 6.543ms returns 0x00
T1558 000:074.316 JLINK_GetHardwareVersion()
T1558 000:074.322 - 0.009ms returns 80000
T1558 000:074.438 JLINK_GetDLLVersion()
T1558 000:074.471 - 0.036ms returns 68604
T1558 000:074.479 JLINK_GetOEMString(...)
T1558 000:074.492 JLINK_GetFirmwareString(...)
T1558 000:074.499 - 0.009ms
T1558 000:090.498 JLINK_GetDLLVersion()
T1558 000:090.519 - 0.023ms returns 68604
T1558 000:090.528 JLINK_GetCompileDateTime()
T1558 000:090.533 - 0.008ms
T1558 000:095.525 JLINK_GetFirmwareString(...)
T1558 000:095.543 - 0.020ms
T1558 000:100.317 JLINK_GetHardwareVersion()
T1558 000:100.329 - 0.014ms returns 80000
T1558 000:106.991 JLINK_GetSN()
T1558 000:107.011 - 0.023ms returns 17935099
T1558 000:111.949 JLINK_GetOEMString(...)
T1558 000:122.446 JLINK_TIF_Select(JLINKARM_TIF_SWD)
T1558 000:123.308 - 0.871ms returns 0x00
T1558 000:123.325 JLINK_HasError()
T1558 000:123.338 JLINK_SetSpeed(20000)
T1558 000:123.483 - 0.152ms
T1558 000:123.498 JLINK_GetId()
T1558 000:129.783   Found SW-DP with ID 0x0BC11477
T1558 000:149.233   Active write protected STM32 device detected.
This could cause problems during flash download.
Note: Unsecuring will trigger a mass erase of the internal flash.
T1558 000:156.699   Executing default behavior previously saved in the registry.
T1558 000:163.215   Device will be unsecured now.
T1558 000:188.553   Found SW-DP with ID 0x0BC11477
T1558 000:204.762   Found SW-DP with ID 0x0BC11477
T1558 000:209.121   Old FW that does not support reading DPIDR via DAP jobs
T1558 000:218.191   Unknown DP version. Assuming DPv0
T1558 000:223.268   Scanning AP map to find all available APs
T1558 000:231.583   AP[1]: Stopped AP scan as end of AP map has been reached
T1558 000:236.414   AP[0]: AHB-AP (IDR: 0x04770031)
T1558 000:241.324   Iterating through AP map to find AHB-AP to use
T1558 000:252.624   AP[0]: Core found
T1558 000:257.417   AP[0]: AHB-AP ROM base: 0xE00FF000
T1558 000:266.475   CPUID register: 0x410CC601. Implementer code: 0x41 (ARM)
T1558 000:271.535   Found Cortex-M0 r0p1, Little endian.
T1558 000:391.755   Identified core does not match configuration. (Found: Cortex-M0, Configured: Cortex-M3)
T1558 000:392.492   -- Max. mem block: 0x00002408
T1558 000:392.534   CPU_ReadMem(4 bytes @ 0xE000EDF0)
T1558 000:393.310   CPU_ReadMem(4 bytes @ 0xE0002000)
T1558 000:403.992   FPUnit: 4 code (BP) slots and 0 literal slots
T1558 000:404.028   CPU_ReadMem(4 bytes @ 0xE000EDFC)
T1558 000:404.885   CPU_WriteMem(4 bytes @ 0xE000EDFC)
T1558 000:405.693   CPU_ReadMem(4 bytes @ 0xE0001000)
T1558 000:406.516   CPU_WriteMem(4 bytes @ 0xE0001000)
T1558 000:413.640   CoreSight components:
T1558 000:419.146   ROMTbl[0] @ E00FF000
T1558 000:419.221   CPU_ReadMem(64 bytes @ 0xE00FF000)
T1558 000:420.233   CPU_ReadMem(32 bytes @ 0xE000EFE0)
T1558 000:426.432   ROMTbl[0][0]: E000E000, CID: B105E00D, PID: 000BB008 SCS
T1558 000:426.459   CPU_ReadMem(32 bytes @ 0xE0001FE0)
T1558 000:431.791   ROMTbl[0][1]: E0001000, CID: B105E00D, PID: 000BB00A DWT
T1558 000:431.817   CPU_ReadMem(32 bytes @ 0xE0002FE0)
T1558 000:437.976   ROMTbl[0][2]: E0002000, CID: B105E00D, PID: 000BB00B FPB
T1558 000:438.695 - 315.211ms returns 0x0BC11477
T1558 000:438.721 JLINK_GetDLLVersion()
T1558 000:438.727 - 0.008ms returns 68604
T1558 000:438.734 JLINK_CORE_GetFound()
T1558 000:438.740 - 0.008ms returns 0x60000FF
T1558 000:438.747 JLINK_GetDebugInfo(0x100 = JLINKARM_ROM_TABLE_ADDR_INDEX)
T1558 000:438.754   Value=0xE00FF000
T1558 000:438.761 - 0.017ms returns 0
T1558 000:444.665 JLINK_ReadMem(0xE00FF000, 0x20 Bytes, ...)
T1558 000:444.701   CPU_ReadMem(32 bytes @ 0xE00FF000)
T1558 000:445.415   Data:  03 F0 F0 FF 03 20 F0 FF 03 30 F0 FF 00 00 00 00 ...
T1558 000:445.438 - 0.776ms returns 0
T1558 000:445.450 JLINK_ReadMem(0xE000EFF0, 0x10 Bytes, ...)
T1558 000:445.464   CPU_ReadMem(16 bytes @ 0xE000EFF0)
T1558 000:446.087   Data:  0D 00 00 00 E0 00 00 00 05 00 00 00 B1 00 00 00
T1558 000:446.110 - 0.663ms returns 0
T1558 000:446.123 JLINK_ReadMem(0xE000EFD0, 0x20 Bytes, ...)
T1558 000:446.137   CPU_ReadMem(32 bytes @ 0xE000EFD0)
T1558 000:446.908   Data:  04 00 00 00 00 00 00 00 00 00 00 00 00 00 00 00 ...
T1558 000:446.932 - 0.813ms returns 0
T1558 000:446.945 JLINK_ReadMem(0xE0001FF0, 0x10 Bytes, ...)
T1558 000:446.960   CPU_ReadMem(16 bytes @ 0xE0001FF0)
T1558 000:447.530   Data:  0D 00 00 00 E0 00 00 00 05 00 00 00 B1 00 00 00
T1558 000:447.552 - 0.609ms returns 0
T1558 000:447.565 JLINK_ReadMem(0xE0001FD0, 0x20 Bytes, ...)
T1558 000:447.579   CPU_ReadMem(32 bytes @ 0xE0001FD0)
T1558 000:448.320   Data:  04 00 00 00 00 00 00 00 00 00 00 00 00 00 00 00 ...
T1558 000:448.345 - 0.783ms returns 0
T1558 000:448.358 JLINK_ReadMem(0xE0002FF0, 0x10 Bytes, ...)
T1558 000:448.372   CPU_ReadMem(16 bytes @ 0xE0002FF0)
T1558 000:448.925   Data:  0D 00 00 00 E0 00 00 00 05 00 00 00 B1 00 00 00
T1558 000:448.938 - 0.583ms returns 0
T1558 000:448.948 JLINK_ReadMem(0xE0002FD0, 0x20 Bytes, ...)
T1558 000:448.958   CPU_ReadMem(32 bytes @ 0xE0002FD0)
T1558 000:449.710   Data:  04 00 00 00 00 00 00 00 00 00 00 00 00 00 00 00 ...
T1558 000:449.723 - 0.777ms returns 0
T1558 000:449.732 JLINK_ReadMemU32(0xE000ED00, 0x1 Items)
T1558 000:449.743   CPU_ReadMem(4 bytes @ 0xE000ED00)
T1558 000:450.204   Data:  01 C6 0C 41
T1558 000:450.217   Debug reg: CPUID
T1558 000:450.224 - 0.494ms returns 1 (0x1)
T1558 000:450.234 JLINK_HasError()
T1558 000:450.242 JLINK_SetResetType(JLINKARM_CM3_RESET_TYPE_NORMAL)
T1558 000:450.247 - 0.008ms returns JLINKARM_CM3_RESET_TYPE_NORMAL
T1558 000:450.254 JLINK_Reset()
T1558 000:450.272   CPU is running
T1558 000:450.281   CPU_WriteMem(4 bytes @ 0xE000EDF0)
T1558 000:450.743   CPU is running
T1558 000:450.759   CPU_WriteMem(4 bytes @ 0xE000EDFC)
T1558 000:455.783   Reset: Halt core after reset via DEMCR.VC_CORERESET.
T1558 000:460.964   Reset: Reset device via AIRCR.SYSRESETREQ.
T1558 000:460.988   CPU is running
T1558 000:461.000   CPU_WriteMem(4 bytes @ 0xE000ED0C)
T1558 000:514.122   CPU_ReadMem(4 bytes @ 0xE000EDF0)
T1558 000:514.712   CPU_ReadMem(4 bytes @ 0xE000EDF0)
T1558 000:515.288   CPU is running
T1558 000:515.342   CPU_WriteMem(4 bytes @ 0xE000EDF0)
T1558 000:515.934   CPU is running
T1558 000:515.987   CPU_WriteMem(4 bytes @ 0xE000EDFC)
T1558 000:522.285   CPU_ReadMem(4 bytes @ 0xE000EDF0)
T1558 000:525.509   CPU_WriteMem(4 bytes @ 0xE0002000)
T1558 000:526.148   CPU_ReadMem(4 bytes @ 0xE000EDFC)
T1558 000:526.749   CPU_ReadMem(4 bytes @ 0xE0001000)
T1558 000:527.342   CPU_WriteMem(4 bytes @ 0xE0001000)
T1558 000:527.974 - 77.751ms
T1558 000:528.059 JLINK_Halt()
T1558 000:528.086 - 0.038ms returns 0x00
T1558 000:528.162 JLINK_IsHalted()
T1558 000:528.225   CPU_ReadMem(4 bytes @ 0x40023844)
T1558 000:528.814 - 0.688ms returns TRUE
T1558 000:528.891 JLINK_ReadMemU32(0xE000EDF0, 0x1 Items)
T1558 000:528.941   CPU_ReadMem(4 bytes @ 0xE000EDF0)
T1558 000:529.563   Data:  03 00 03 01
T1558 000:529.620   Debug reg: DHCSR
T1558 000:529.654 - 0.775ms returns 1 (0x1)
T1558 000:529.715 JLINK_WriteU32_64(0xE000EDF0, 0xA05F0003)
T1558 000:529.743   Debug reg: DHCSR
T1558 000:529.834   CPU_WriteMem(4 bytes @ 0xE000EDF0)
T1558 000:530.449 - 0.766ms returns 0 (0x00000000)
T1558 000:530.520 JLINK_WriteU32_64(0xE000EDFC, 0x01000000)
T1558 000:530.549   Debug reg: DEMCR
T1558 000:530.621   CPU_WriteMem(4 bytes @ 0xE000EDFC)
T1558 000:531.224 - 0.735ms returns 0 (0x00000000)
T1558 000:567.926 JLINK_GetHWStatus(...)
T1558 000:568.188 - 0.269ms returns 0
T1558 000:582.412 JLINK_GetNumBPUnits(Type = 0xFFFFFF00)
T1558 000:582.433 - 0.024ms returns 0x04
T1558 000:582.441 JLINK_GetNumBPUnits(Type = 0xF0)
T1558 000:582.447 - 0.008ms returns 0x2000
T1558 000:582.454 JLINK_GetNumWPUnits()
T1558 000:582.460 - 0.008ms returns 2
T1558 000:595.980 JLINK_GetSpeed()
T1558 000:596.000 - 0.022ms returns 4000
T1558 000:604.438 JLINK_ReadMemU32(0xE000E004, 0x1 Items)
T1558 000:604.468   CPU_ReadMem(4 bytes @ 0xE000E004)
T1558 000:604.864   Data:  00 00 00 00
T1558 000:604.876 - 0.441ms returns 1 (0x1)
T1558 000:604.893 JLINK_Halt()
T1558 000:604.899 - 0.008ms returns 0x00
T1558 000:604.906 JLINK_IsHalted()
T1558 000:604.914   CPU_ReadMem(4 bytes @ 0x40023844)
T1558 000:605.341 - 0.441ms returns TRUE
T1558 000:609.750 JLINK_WriteMem(0x20000000, 0x38C Bytes, ...)
T1558 000:609.764   Data:  00 BE 0A E0 0D 78 2D 06 68 40 08 24 40 00 00 D3 ...
T1558 000:609.993   CPU_WriteMem(908 bytes @ 0x20000000)
T1558 000:615.805 - 6.061ms returns 0x38C
T1558 000:615.835 JLINK_HasError()
T1558 000:615.844 JLINK_WriteReg(R0, 0x00000000)
T1558 000:615.852 - 0.011ms returns 0
T1558 000:615.859 JLINK_WriteReg(R1, 0x00B71B00)
T1558 000:615.865 - 0.008ms returns 0
T1558 000:615.873 JLINK_WriteReg(R2, 0x00000001)
T1558 000:615.879 - 0.008ms returns 0
T1558 000:615.886 JLINK_WriteReg(R3, 0x00000000)
T1558 000:615.892 - 0.008ms returns 0
T1558 000:615.899 JLINK_WriteReg(R4, 0x00000000)
T1558 000:615.904 - 0.008ms returns 0
T1558 000:615.911 JLINK_WriteReg(R5, 0x00000000)
T1558 000:615.917 - 0.008ms returns 0
T1558 000:615.924 JLINK_WriteReg(R6, 0x00000000)
T1558 000:615.930 - 0.008ms returns 0
T1558 000:615.937 JLINK_WriteReg(R7, 0x00000000)
T1558 000:615.943 - 0.008ms returns 0
T1558 000:615.950 JLINK_WriteReg(R8, 0x00000000)
T1558 000:615.960 - 0.012ms returns 0
T1558 000:615.967 JLINK_WriteReg(R9, 0x20000388)
T1558 000:615.972 - 0.008ms returns 0
T1558 000:615.980 JLINK_WriteReg(R10, 0x00000000)
T1558 000:615.985 - 0.008ms returns 0
T1558 000:615.992 JLINK_WriteReg(R11, 0x00000000)
T1558 000:615.998 - 0.008ms returns 0
T1558 000:616.005 JLINK_WriteReg(R12, 0x00000000)
T1558 000:616.011 - 0.008ms returns 0
T1558 000:616.018 JLINK_WriteReg(R13 (SP), 0x20001000)
T1558 000:616.025 - 0.009ms returns 0
T1558 000:616.032 JLINK_WriteReg(R14, 0x20000001)
T1558 000:616.038 - 0.008ms returns 0
T1558 000:616.045 JLINK_WriteReg(R15 (PC), 0x20000038)
T1558 000:616.053 - 0.010ms returns 0
T1558 000:616.060 JLINK_WriteReg(XPSR, 0x01000000)
T1558 000:616.066 - 0.008ms returns 0
T1558 000:616.073 JLINK_WriteReg(MSP, 0x20001000)
T1558 000:616.083 - 0.013ms returns 0
T1558 000:616.090 JLINK_WriteReg(PSP, 0x20001000)
T1558 000:616.096 - 0.008ms returns 0
T1558 000:616.103 JLINK_WriteReg(CFBP, 0x00000000)
T1558 000:616.109 - 0.008ms returns 0
T1558 000:616.116 JLINK_SetBPEx(Addr = 0x20000000, Type = 0xFFFFFFF2)
T1558 000:616.125   CPU_ReadMem(2 bytes @ 0x20000000)
T1558 000:616.671 - 0.560ms returns 0x00000001
T1558 000:616.683 JLINK_Go()
T1558 000:616.692   CPU_WriteMem(2 bytes @ 0x20000000)
T1558 000:617.099   CPU_ReadMem(4 bytes @ 0xE0001000)
T1558 000:617.502   CPU_WriteMem(4 bytes @ 0xE0001000)
T1558 000:617.514   CPU_WriteMem(4 bytes @ 0xE0002008)
T1558 000:617.522   CPU_WriteMem(4 bytes @ 0xE000200C)
T1558 000:617.533   CPU_WriteMem(4 bytes @ 0xE0002010)
T1558 000:617.542   CPU_WriteMem(4 bytes @ 0xE0002014)
T1558 000:619.178   CPU_WriteMem(4 bytes @ 0xE0001004)
T1558 000:621.785 - 5.110ms
T1558 000:621.805 JLINK_IsHalted()
T1558 000:623.925   CPU_ReadMem(2 bytes @ 0x20000000)
T1558 000:624.289 - 2.491ms returns TRUE
T1558 000:624.305 JLINK_ReadReg(R15 (PC))
T1558 000:624.314 - 0.012ms returns 0x20000000
T1558 000:624.322 JLINK_ClrBPEx(BPHandle = 0x00000001)
T1558 000:624.329 - 0.009ms returns 0x00
T1558 000:624.336 JLINK_ReadReg(R0)
T1558 000:624.342 - 0.008ms returns 0x00000000
T1558 000:625.091 JLINK_HasError()
T1558 000:625.108 JLINK_WriteReg(R0, 0x00000000)
T1558 000:625.116 - 0.011ms returns 0
T1558 000:625.124 JLINK_WriteReg(R1, 0x00000200)
T1558 000:625.130 - 0.008ms returns 0
T1558 000:625.137 JLINK_WriteReg(R2, 0x000000FF)
T1558 000:625.143 - 0.008ms returns 0
T1558 000:625.150 JLINK_WriteReg(R3, 0x00000000)
T1558 000:625.156 - 0.008ms returns 0
T1558 000:625.163 JLINK_WriteReg(R4, 0x00000000)
T1558 000:625.169 - 0.008ms returns 0
T1558 000:625.176 JLINK_WriteReg(R5, 0x00000000)
T1558 000:625.182 - 0.008ms returns 0
T1558 000:625.189 JLINK_WriteReg(R6, 0x00000000)
T1558 000:625.195 - 0.008ms returns 0
T1558 000:625.202 JLINK_WriteReg(R7, 0x00000000)
T1558 000:625.208 - 0.008ms returns 0
T1558 000:625.215 JLINK_WriteReg(R8, 0x00000000)
T1558 000:625.220 - 0.008ms returns 0
T1558 000:625.228 JLINK_WriteReg(R9, 0x20000388)
T1558 000:625.233 - 0.008ms returns 0
T1558 000:625.240 JLINK_WriteReg(R10, 0x00000000)
T1558 000:625.246 - 0.008ms returns 0
T1558 000:625.253 JLINK_WriteReg(R11, 0x00000000)
T1558 000:625.259 - 0.008ms returns 0
T1558 000:625.266 JLINK_WriteReg(R12, 0x00000000)
T1558 000:625.272 - 0.008ms returns 0
T1558 000:625.279 JLINK_WriteReg(R13 (SP), 0x20001000)
T1558 000:625.285 - 0.009ms returns 0
T1558 000:625.292 JLINK_WriteReg(R14, 0x20000001)
T1558 000:625.298 - 0.008ms returns 0
T1558 000:625.305 JLINK_WriteReg(R15 (PC), 0x20000020)
T1558 000:625.311 - 0.008ms returns 0
T1558 000:625.318 JLINK_WriteReg(XPSR, 0x01000000)
T1558 000:625.324 - 0.008ms returns 0
T1558 000:625.331 JLINK_WriteReg(MSP, 0x20001000)
T1558 000:625.336 - 0.008ms returns 0
T1558 000:625.344 JLINK_WriteReg(PSP, 0x20001000)
T1558 000:625.349 - 0.008ms returns 0
T1558 000:625.356 JLINK_WriteReg(CFBP, 0x00000000)
T1558 000:625.362 - 0.008ms returns 0
T1558 000:625.369 JLINK_SetBPEx(Addr = 0x20000000, Type = 0xFFFFFFF2)
T1558 000:625.376 - 0.009ms returns 0x00000002
T1558 000:625.383 JLINK_Go()
T1558 000:625.400   CPU_ReadMem(4 bytes @ 0xE0001000)
T1558 000:625.851   CPU_WriteMem(4 bytes @ 0xE0001000)
T1558 000:628.424 - 3.047ms
T1558 000:628.437 JLINK_IsHalted()
T1558 000:630.743   CPU_ReadMem(2 bytes @ 0x20000000)
T1558 000:631.126 - 2.694ms returns TRUE
T1558 000:631.138 JLINK_ReadReg(R15 (PC))
T1558 000:631.145 - 0.010ms returns 0x20000000
T1558 000:631.153 JLINK_ClrBPEx(BPHandle = 0x00000002)
T1558 000:631.159 - 0.008ms returns 0x00
T1558 000:631.166 JLINK_ReadReg(R0)
T1558 000:631.172 - 0.008ms returns 0x00000001
T1558 000:631.179 JLINK_HasError()
T1558 000:631.187 JLINK_WriteReg(R0, 0x00000000)
T1558 000:631.193 - 0.008ms returns 0
T1558 000:631.200 JLINK_WriteReg(R1, 0x00000200)
T1558 000:631.206 - 0.008ms returns 0
T1558 000:631.213 JLINK_WriteReg(R2, 0x000000FF)
T1558 000:631.219 - 0.008ms returns 0
T1558 000:631.226 JLINK_WriteReg(R3, 0x00000000)
T1558 000:631.231 - 0.008ms returns 0
T1558 000:631.238 JLINK_WriteReg(R4, 0x00000000)
T1558 000:631.244 - 0.008ms returns 0
T1558 000:631.251 JLINK_WriteReg(R5, 0x00000000)
T1558 000:631.257 - 0.008ms returns 0
T1558 000:631.264 JLINK_WriteReg(R6, 0x00000000)
T1558 000:631.270 - 0.008ms returns 0
T1558 000:631.277 JLINK_WriteReg(R7, 0x00000000)
T1558 000:631.282 - 0.008ms returns 0
T1558 000:631.289 JLINK_WriteReg(R8, 0x00000000)
T1558 000:631.295 - 0.008ms returns 0
T1558 000:631.302 JLINK_WriteReg(R9, 0x20000388)
T1558 000:631.308 - 0.008ms returns 0
T1558 000:631.315 JLINK_WriteReg(R10, 0x00000000)
T1558 000:631.357 - 0.045ms returns 0
T1558 000:631.365 JLINK_WriteReg(R11, 0x00000000)
T1558 000:631.371 - 0.008ms returns 0
T1558 000:631.378 JLINK_WriteReg(R12, 0x00000000)
T1558 000:631.384 - 0.008ms returns 0
T1558 000:631.391 JLINK_WriteReg(R13 (SP), 0x20001000)
T1558 000:631.397 - 0.008ms returns 0
T1558 000:631.404 JLINK_WriteReg(R14, 0x20000001)
T1558 000:631.410 - 0.008ms returns 0
T1558 000:631.417 JLINK_WriteReg(R15 (PC), 0x2000011C)
T1558 000:631.423 - 0.008ms returns 0
T1558 000:631.430 JLINK_WriteReg(XPSR, 0x01000000)
T1558 000:631.435 - 0.008ms returns 0
T1558 000:631.443 JLINK_WriteReg(MSP, 0x20001000)
T1558 000:631.448 - 0.008ms returns 0
T1558 000:631.455 JLINK_WriteReg(PSP, 0x20001000)
T1558 000:631.461 - 0.008ms returns 0
T1558 000:631.468 JLINK_WriteReg(CFBP, 0x00000000)
T1558 000:631.474 - 0.008ms returns 0
T1558 000:631.481 JLINK_SetBPEx(Addr = 0x20000000, Type = 0xFFFFFFF2)
T1558 000:631.488 - 0.009ms returns 0x00000003
T1558 000:631.495 JLINK_Go()
T1558 000:631.504   CPU_ReadMem(4 bytes @ 0xE0001000)
T1558 000:631.878   CPU_WriteMem(4 bytes @ 0xE0001000)
T1558 000:634.461 - 2.972ms
T1558 000:634.476 JLINK_IsHalted()
T1558 000:634.822 - 0.354ms returns FALSE
T1558 000:634.839 JLINK_HasError()
T1558 000:655.293 JLINK_IsHalted()
T1558 000:657.462   CPU_ReadMem(2 bytes @ 0x20000000)
T1558 000:657.843 - 2.555ms returns TRUE
T1558 000:657.856 JLINK_ReadReg(R15 (PC))
T1558 000:657.865 - 0.011ms returns 0x20000000
T1558 000:657.873 JLINK_ClrBPEx(BPHandle = 0x00000003)
T1558 000:657.879 - 0.009ms returns 0x00
T1558 000:657.886 JLINK_ReadReg(R0)
T1558 000:657.892 - 0.008ms returns 0x00000000
T1558 000:658.572 JLINK_HasError()
T1558 000:658.584 JLINK_WriteReg(R0, 0x00000200)
T1558 000:658.592 - 0.010ms returns 0
T1558 000:658.599 JLINK_WriteReg(R1, 0x00000200)
T1558 000:658.605 - 0.008ms returns 0
T1558 000:658.612 JLINK_WriteReg(R2, 0x000000FF)
T1558 000:658.618 - 0.008ms returns 0
T1558 000:658.626 JLINK_WriteReg(R3, 0x00000000)
T1558 000:658.631 - 0.008ms returns 0
T1558 000:658.638 JLINK_WriteReg(R4, 0x00000000)
T1558 000:658.644 - 0.008ms returns 0
T1558 000:658.651 JLINK_WriteReg(R5, 0x00000000)
T1558 000:658.657 - 0.008ms returns 0
T1558 000:658.664 JLINK_WriteReg(R6, 0x00000000)
T1558 000:658.670 - 0.008ms returns 0
T1558 000:658.677 JLINK_WriteReg(R7, 0x00000000)
T1558 000:658.682 - 0.008ms returns 0
T1558 000:658.689 JLINK_WriteReg(R8, 0x00000000)
T1558 000:658.695 - 0.008ms returns 0
T1558 000:658.702 JLINK_WriteReg(R9, 0x20000388)
T1558 000:658.708 - 0.008ms returns 0
T1558 000:658.715 JLINK_WriteReg(R10, 0x00000000)
T1558 000:658.721 - 0.008ms returns 0
T1558 000:658.728 JLINK_WriteReg(R11, 0x00000000)
T1558 000:658.734 - 0.008ms returns 0
T1558 000:658.741 JLINK_WriteReg(R12, 0x00000000)
T1558 000:658.746 - 0.008ms returns 0
T1558 000:658.753 JLINK_WriteReg(R13 (SP), 0x20001000)
T1558 000:658.760 - 0.009ms returns 0
T1558 000:658.767 JLINK_WriteReg(R14, 0x20000001)
T1558 000:658.773 - 0.008ms returns 0
T1558 000:658.780 JLINK_WriteReg(R15 (PC), 0x20000020)
T1558 000:658.785 - 0.008ms returns 0
T1558 000:658.792 JLINK_WriteReg(XPSR, 0x01000000)
T1558 000:658.798 - 0.008ms returns 0
T1558 000:658.805 JLINK_WriteReg(MSP, 0x20001000)
T1558 000:658.811 - 0.008ms returns 0
T1558 000:658.818 JLINK_WriteReg(PSP, 0x20001000)
T1558 000:658.824 - 0.008ms returns 0
T1558 000:658.831 JLINK_WriteReg(CFBP, 0x00000000)
T1558 000:658.836 - 0.008ms returns 0
T1558 000:658.844 JLINK_SetBPEx(Addr = 0x20000000, Type = 0xFFFFFFF2)
T1558 000:658.850 - 0.009ms returns 0x00000004
T1558 000:658.858 JLINK_Go()
T1558 000:658.869   CPU_ReadMem(4 bytes @ 0xE0001000)
T1558 000:659.248   CPU_WriteMem(4 bytes @ 0xE0001000)
T1558 000:661.792 - 2.940ms
T1558 000:661.807 JLINK_IsHalted()
T1558 000:664.026   CPU_ReadMem(2 bytes @ 0x20000000)
T1558 000:664.412 - 2.610ms returns TRUE
T1558 000:664.426 JLINK_ReadReg(R15 (PC))
T1558 000:664.433 - 0.010ms returns 0x20000000
T1558 000:664.441 JLINK_ClrBPEx(BPHandle = 0x00000004)
T1558 000:664.486 - 0.050ms returns 0x00
T1558 000:664.498 JLINK_ReadReg(R0)
T1558 000:664.504 - 0.009ms returns 0x00000001
T1558 000:664.512 JLINK_HasError()
T1558 000:664.519 JLINK_WriteReg(R0, 0x00000200)
T1558 000:664.525 - 0.009ms returns 0
T1558 000:664.563 JLINK_WriteReg(R1, 0x00000200)
T1558 000:664.574 - 0.013ms returns 0
T1558 000:664.582 JLINK_WriteReg(R2, 0x000000FF)
T1558 000:664.587 - 0.008ms returns 0
T1558 000:664.595 JLINK_WriteReg(R3, 0x00000000)
T1558 000:664.600 - 0.008ms returns 0
T1558 000:664.608 JLINK_WriteReg(R4, 0x00000000)
T1558 000:664.613 - 0.008ms returns 0
T1558 000:664.620 JLINK_WriteReg(R5, 0x00000000)
T1558 000:664.626 - 0.008ms returns 0
T1558 000:664.633 JLINK_WriteReg(R6, 0x00000000)
T1558 000:664.639 - 0.008ms returns 0
T1558 000:664.646 JLINK_WriteReg(R7, 0x00000000)
T1558 000:664.652 - 0.008ms returns 0
T1558 000:664.659 JLINK_WriteReg(R8, 0x00000000)
T1558 000:664.665 - 0.008ms returns 0
T1558 000:664.672 JLINK_WriteReg(R9, 0x20000388)
T1558 000:664.677 - 0.008ms returns 0
T1558 000:664.684 JLINK_WriteReg(R10, 0x00000000)
T1558 000:664.690 - 0.008ms returns 0
T1558 000:664.697 JLINK_WriteReg(R11, 0x00000000)
T1558 000:664.703 - 0.008ms returns 0
T1558 000:664.710 JLINK_WriteReg(R12, 0x00000000)
T1558 000:664.716 - 0.008ms returns 0
T1558 000:664.723 JLINK_WriteReg(R13 (SP), 0x20001000)
T1558 000:664.729 - 0.008ms returns 0
T1558 000:664.736 JLINK_WriteReg(R14, 0x20000001)
T1558 000:664.742 - 0.008ms returns 0
T1558 000:664.749 JLINK_WriteReg(R15 (PC), 0x2000011C)
T1558 000:664.755 - 0.008ms returns 0
T1558 000:664.762 JLINK_WriteReg(XPSR, 0x01000000)
T1558 000:664.767 - 0.008ms returns 0
T1558 000:664.774 JLINK_WriteReg(MSP, 0x20001000)
T1558 000:664.780 - 0.008ms returns 0
T1558 000:664.787 JLINK_WriteReg(PSP, 0x20001000)
T1558 000:664.793 - 0.008ms returns 0
T1558 000:664.800 JLINK_WriteReg(CFBP, 0x00000000)
T1558 000:664.806 - 0.008ms returns 0
T1558 000:664.813 JLINK_SetBPEx(Addr = 0x20000000, Type = 0xFFFFFFF2)
T1558 000:664.820 - 0.009ms returns 0x00000005
T1558 000:664.827 JLINK_Go()
T1558 000:664.836   CPU_ReadMem(4 bytes @ 0xE0001000)
T1558 000:665.206   CPU_WriteMem(4 bytes @ 0xE0001000)
T1558 000:667.816 - 2.995ms
T1558 000:667.828 JLINK_IsHalted()
T1558 000:668.159 - 0.337ms returns FALSE
T1558 000:668.173 JLINK_HasError()
T1558 000:669.552 JLINK_IsHalted()
T1558 000:669.869 - 0.323ms returns FALSE
T1558 000:669.882 JLINK_HasError()
T1558 000:672.441 JLINK_IsHalted()
T1558 000:674.608   CPU_ReadMem(2 bytes @ 0x20000000)
T1558 000:675.001 - 2.568ms returns TRUE
T1558 000:675.016 JLINK_ReadReg(R15 (PC))
T1558 000:675.025 - 0.011ms returns 0x20000000
T1558 000:675.032 JLINK_ClrBPEx(BPHandle = 0x00000005)
T1558 000:675.039 - 0.009ms returns 0x00
T1558 000:675.046 JLINK_ReadReg(R0)
T1558 000:675.052 - 0.008ms returns 0x00000000
T1558 000:675.659 JLINK_HasError()
T1558 000:675.671 JLINK_WriteReg(R0, 0x00000400)
T1558 000:675.679 - 0.010ms returns 0
T1558 000:675.686 JLINK_WriteReg(R1, 0x00000200)
T1558 000:675.692 - 0.008ms returns 0
T1558 000:675.699 JLINK_WriteReg(R2, 0x000000FF)
T1558 000:675.705 - 0.008ms returns 0
T1558 000:675.712 JLINK_WriteReg(R3, 0x00000000)
T1558 000:675.718 - 0.008ms returns 0
T1558 000:675.725 JLINK_WriteReg(R4, 0x00000000)
T1558 000:675.730 - 0.008ms returns 0
T1558 000:675.738 JLINK_WriteReg(R5, 0x00000000)
T1558 000:675.743 - 0.008ms returns 0
T1558 000:675.750 JLINK_WriteReg(R6, 0x00000000)
T1558 000:675.756 - 0.008ms returns 0
T1558 000:675.763 JLINK_WriteReg(R7, 0x00000000)
T1558 000:675.769 - 0.008ms returns 0
T1558 000:675.776 JLINK_WriteReg(R8, 0x00000000)
T1558 000:675.782 - 0.008ms returns 0
T1558 000:675.789 JLINK_WriteReg(R9, 0x20000388)
T1558 000:675.794 - 0.008ms returns 0
T1558 000:675.801 JLINK_WriteReg(R10, 0x00000000)
T1558 000:675.807 - 0.008ms returns 0
T1558 000:675.814 JLINK_WriteReg(R11, 0x00000000)
T1558 000:675.820 - 0.008ms returns 0
T1558 000:675.827 JLINK_WriteReg(R12, 0x00000000)
T1558 000:675.832 - 0.008ms returns 0
T1558 000:675.842 JLINK_WriteReg(R13 (SP), 0x20001000)
T1558 000:675.849 - 0.010ms returns 0
T1558 000:675.857 JLINK_WriteReg(R14, 0x20000001)
T1558 000:675.862 - 0.008ms returns 0
T1558 000:675.869 JLINK_WriteReg(R15 (PC), 0x20000020)
T1558 000:675.875 - 0.008ms returns 0
T1558 000:675.882 JLINK_WriteReg(XPSR, 0x01000000)
T1558 000:675.888 - 0.008ms returns 0
T1558 000:675.895 JLINK_WriteReg(MSP, 0x20001000)
T1558 000:675.901 - 0.008ms returns 0
T1558 000:675.908 JLINK_WriteReg(PSP, 0x20001000)
T1558 000:675.914 - 0.008ms returns 0
T1558 000:675.921 JLINK_WriteReg(CFBP, 0x00000000)
T1558 000:675.926 - 0.008ms returns 0
T1558 000:675.933 JLINK_SetBPEx(Addr = 0x20000000, Type = 0xFFFFFFF2)
T1558 000:675.940 - 0.009ms returns 0x00000006
T1558 000:675.947 JLINK_Go()
T1558 000:675.957   CPU_ReadMem(4 bytes @ 0xE0001000)
T1558 000:676.349   CPU_WriteMem(4 bytes @ 0xE0001000)
T1558 000:679.221 - 3.281ms
T1558 000:679.235 JLINK_IsHalted()
T1558 000:681.468   CPU_ReadMem(2 bytes @ 0x20000000)
T1558 000:681.890 - 2.660ms returns TRUE
T1558 000:681.903 JLINK_ReadReg(R15 (PC))
T1558 000:681.910 - 0.010ms returns 0x20000000
T1558 000:681.918 JLINK_ClrBPEx(BPHandle = 0x00000006)
T1558 000:681.924 - 0.009ms returns 0x00
T1558 000:681.931 JLINK_ReadReg(R0)
T1558 000:681.937 - 0.008ms returns 0x00000001
T1558 000:681.945 JLINK_HasError()
T1558 000:681.952 JLINK_WriteReg(R0, 0x00000400)
T1558 000:681.958 - 0.009ms returns 0
T1558 000:681.965 JLINK_WriteReg(R1, 0x00000200)
T1558 000:681.971 - 0.008ms returns 0
T1558 000:681.978 JLINK_WriteReg(R2, 0x000000FF)
T1558 000:681.984 - 0.008ms returns 0
T1558 000:681.991 JLINK_WriteReg(R3, 0x00000000)
T1558 000:681.997 - 0.008ms returns 0
T1558 000:682.004 JLINK_WriteReg(R4, 0x00000000)
T1558 000:682.010 - 0.008ms returns 0
T1558 000:682.017 JLINK_WriteReg(R5, 0x00000000)
T1558 000:682.023 - 0.008ms returns 0
T1558 000:682.030 JLINK_WriteReg(R6, 0x00000000)
T1558 000:682.036 - 0.008ms returns 0
T1558 000:682.043 JLINK_WriteReg(R7, 0x00000000)
T1558 000:682.048 - 0.008ms returns 0
T1558 000:682.056 JLINK_WriteReg(R8, 0x00000000)
T1558 000:682.061 - 0.008ms returns 0
T1558 000:682.069 JLINK_WriteReg(R9, 0x20000388)
T1558 000:682.074 - 0.008ms returns 0
T1558 000:682.081 JLINK_WriteReg(R10, 0x00000000)
T1558 000:682.087 - 0.008ms returns 0
T1558 000:682.094 JLINK_WriteReg(R11, 0x00000000)
T1558 000:682.100 - 0.008ms returns 0
T1558 000:682.107 JLINK_WriteReg(R12, 0x00000000)
T1558 000:682.113 - 0.008ms returns 0
T1558 000:682.120 JLINK_WriteReg(R13 (SP), 0x20001000)
T1558 000:682.126 - 0.008ms returns 0
T1558 000:682.133 JLINK_WriteReg(R14, 0x20000001)
T1558 000:682.139 - 0.008ms returns 0
T1558 000:682.146 JLINK_WriteReg(R15 (PC), 0x2000011C)
T1558 000:682.152 - 0.008ms returns 0
T1558 000:682.159 JLINK_WriteReg(XPSR, 0x01000000)
T1558 000:682.165 - 0.008ms returns 0
T1558 000:682.176 JLINK_WriteReg(MSP, 0x20001000)
T1558 000:682.182 - 0.008ms returns 0
T1558 000:682.189 JLINK_WriteReg(PSP, 0x20001000)
T1558 000:682.195 - 0.008ms returns 0
T1558 000:682.202 JLINK_WriteReg(CFBP, 0x00000000)
T1558 000:682.208 - 0.008ms returns 0
T1558 000:682.215 JLINK_SetBPEx(Addr = 0x20000000, Type = 0xFFFFFFF2)
T1558 000:682.221 - 0.009ms returns 0x00000007
T1558 000:682.229 JLINK_Go()
T1558 000:682.238   CPU_ReadMem(4 bytes @ 0xE0001000)
T1558 000:682.717   CPU_WriteMem(4 bytes @ 0xE0001000)
T1558 000:685.407 - 3.184ms
T1558 000:685.420 JLINK_IsHalted()
T1558 000:685.911 - 0.497ms returns FALSE
T1558 000:685.924 JLINK_HasError()
T1558 000:688.827 JLINK_IsHalted()
T1558 000:691.083   CPU_ReadMem(2 bytes @ 0x20000000)
T1558 000:691.572 - 2.751ms returns TRUE
T1558 000:691.587 JLINK_ReadReg(R15 (PC))
T1558 000:691.599 - 0.014ms returns 0x20000000
T1558 000:691.606 JLINK_ClrBPEx(BPHandle = 0x00000007)
T1558 000:691.613 - 0.009ms returns 0x00
T1558 000:691.621 JLINK_ReadReg(R0)
T1558 000:691.627 - 0.009ms returns 0x00000000
T1558 000:692.219 JLINK_HasError()
T1558 000:692.231 JLINK_WriteReg(R0, 0x00000600)
T1558 000:692.238 - 0.012ms returns 0
T1558 000:692.250 JLINK_WriteReg(R1, 0x00000200)
T1558 000:692.256 - 0.008ms returns 0
T1558 000:692.264 JLINK_WriteReg(R2, 0x000000FF)
T1558 000:692.269 - 0.008ms returns 0
T1558 000:692.276 JLINK_WriteReg(R3, 0x00000000)
T1558 000:692.282 - 0.008ms returns 0
T1558 000:692.289 JLINK_WriteReg(R4, 0x00000000)
T1558 000:692.295 - 0.008ms returns 0
T1558 000:692.302 JLINK_WriteReg(R5, 0x00000000)
T1558 000:692.308 - 0.008ms returns 0
T1558 000:692.315 JLINK_WriteReg(R6, 0x00000000)
T1558 000:692.321 - 0.008ms returns 0
T1558 000:692.328 JLINK_WriteReg(R7, 0x00000000)
T1558 000:692.333 - 0.008ms returns 0
T1558 000:692.341 JLINK_WriteReg(R8, 0x00000000)
T1558 000:692.347 - 0.008ms returns 0
T1558 000:692.354 JLINK_WriteReg(R9, 0x20000388)
T1558 000:692.359 - 0.008ms returns 0
T1558 000:692.366 JLINK_WriteReg(R10, 0x00000000)
T1558 000:692.372 - 0.008ms returns 0
T1558 000:692.379 JLINK_WriteReg(R11, 0x00000000)
T1558 000:692.385 - 0.008ms returns 0
T1558 000:692.392 JLINK_WriteReg(R12, 0x00000000)
T1558 000:692.398 - 0.008ms returns 0
T1558 000:692.405 JLINK_WriteReg(R13 (SP), 0x20001000)
T1558 000:692.411 - 0.008ms returns 0
T1558 000:692.418 JLINK_WriteReg(R14, 0x20000001)
T1558 000:692.424 - 0.008ms returns 0
T1558 000:692.431 JLINK_WriteReg(R15 (PC), 0x20000020)
T1558 000:692.437 - 0.008ms returns 0
T1558 000:692.444 JLINK_WriteReg(XPSR, 0x01000000)
T1558 000:692.449 - 0.008ms returns 0
T1558 000:692.457 JLINK_WriteReg(MSP, 0x20001000)
T1558 000:692.462 - 0.008ms returns 0
T1558 000:692.469 JLINK_WriteReg(PSP, 0x20001000)
T1558 000:692.475 - 0.008ms returns 0
T1558 000:692.482 JLINK_WriteReg(CFBP, 0x00000000)
T1558 000:692.488 - 0.008ms returns 0
T1558 000:692.495 JLINK_SetBPEx(Addr = 0x20000000, Type = 0xFFFFFFF2)
T1558 000:692.501 - 0.009ms returns 0x00000008
T1558 000:692.509 JLINK_Go()
T1558 000:692.519   CPU_ReadMem(4 bytes @ 0xE0001000)
T1558 000:692.986   CPU_WriteMem(4 bytes @ 0xE0001000)
T1558 000:695.787 - 3.285ms
T1558 000:695.801 JLINK_IsHalted()
T1558 000:697.957   CPU_ReadMem(2 bytes @ 0x20000000)
T1558 000:698.404 - 2.610ms returns TRUE
T1558 000:698.419 JLINK_ReadReg(R15 (PC))
T1558 000:698.427 - 0.011ms returns 0x20000000
T1558 000:698.434 JLINK_ClrBPEx(BPHandle = 0x00000008)
T1558 000:698.441 - 0.009ms returns 0x00
T1558 000:698.448 JLINK_ReadReg(R0)
T1558 000:698.454 - 0.008ms returns 0x00000001
T1558 000:698.462 JLINK_HasError()
T1558 000:698.469 JLINK_WriteReg(R0, 0x00000600)
T1558 000:698.475 - 0.009ms returns 0
T1558 000:698.483 JLINK_WriteReg(R1, 0x00000200)
T1558 000:698.488 - 0.008ms returns 0
T1558 000:698.495 JLINK_WriteReg(R2, 0x000000FF)
T1558 000:698.501 - 0.008ms returns 0
T1558 000:698.508 JLINK_WriteReg(R3, 0x00000000)
T1558 000:698.514 - 0.008ms returns 0
T1558 000:698.521 JLINK_WriteReg(R4, 0x00000000)
T1558 000:698.527 - 0.008ms returns 0
T1558 000:698.534 JLINK_WriteReg(R5, 0x00000000)
T1558 000:698.540 - 0.008ms returns 0
T1558 000:698.547 JLINK_WriteReg(R6, 0x00000000)
T1558 000:698.552 - 0.008ms returns 0
T1558 000:698.559 JLINK_WriteReg(R7, 0x00000000)
T1558 000:698.565 - 0.008ms returns 0
T1558 000:698.572 JLINK_WriteReg(R8, 0x00000000)
T1558 000:698.578 - 0.008ms returns 0
T1558 000:698.585 JLINK_WriteReg(R9, 0x20000388)
T1558 000:698.591 - 0.008ms returns 0
T1558 000:698.598 JLINK_WriteReg(R10, 0x00000000)
T1558 000:698.604 - 0.008ms returns 0
T1558 000:698.611 JLINK_WriteReg(R11, 0x00000000)
T1558 000:698.616 - 0.008ms returns 0
T1558 000:698.623 JLINK_WriteReg(R12, 0x00000000)
T1558 000:698.629 - 0.008ms returns 0
T1558 000:698.636 JLINK_WriteReg(R13 (SP), 0x20001000)
T1558 000:698.642 - 0.008ms returns 0
T1558 000:698.649 JLINK_WriteReg(R14, 0x20000001)
T1558 000:698.655 - 0.008ms returns 0
T1558 000:698.662 JLINK_WriteReg(R15 (PC), 0x2000011C)
T1558 000:698.668 - 0.008ms returns 0
T1558 000:698.675 JLINK_WriteReg(XPSR, 0x01000000)
T1558 000:698.681 - 0.008ms returns 0
T1558 000:698.688 JLINK_WriteReg(MSP, 0x20001000)
T1558 000:698.693 - 0.008ms returns 0
T1558 000:698.702 JLINK_WriteReg(PSP, 0x20001000)
T1558 000:698.709 - 0.009ms returns 0
T1558 000:698.716 JLINK_WriteReg(CFBP, 0x00000000)
T1558 000:698.721 - 0.008ms returns 0
T1558 000:698.729 JLINK_SetBPEx(Addr = 0x20000000, Type = 0xFFFFFFF2)
T1558 000:698.735 - 0.009ms returns 0x00000009
T1558 000:698.742 JLINK_Go()
T1558 000:698.752   CPU_ReadMem(4 bytes @ 0xE0001000)
T1558 000:699.211   CPU_WriteMem(4 bytes @ 0xE0001000)
T1558 000:701.888 - 3.152ms
T1558 000:701.901 JLINK_IsHalted()
T1558 000:702.379 - 0.484ms returns FALSE
T1558 000:702.392 JLINK_HasError()
T1558 000:703.970 JLINK_IsHalted()
T1558 000:704.401 - 0.439ms returns FALSE
T1558 000:704.416 JLINK_HasError()
T1558 000:705.972 JLINK_IsHalted()
T1558 000:708.084   CPU_ReadMem(2 bytes @ 0x20000000)
T1558 000:708.474 - 2.509ms returns TRUE
T1558 000:708.489 JLINK_ReadReg(R15 (PC))
T1558 000:708.498 - 0.011ms returns 0x20000000
T1558 000:708.506 JLINK_ClrBPEx(BPHandle = 0x00000009)
T1558 000:708.513 - 0.009ms returns 0x00
T1558 000:708.521 JLINK_ReadReg(R0)
T1558 000:708.527 - 0.009ms returns 0x00000000
T1558 000:709.191 JLINK_HasError()
T1558 000:709.203 JLINK_WriteReg(R0, 0x00000800)
T1558 000:709.211 - 0.011ms returns 0
T1558 000:709.220 JLINK_WriteReg(R1, 0x00000200)
T1558 000:709.226 - 0.009ms returns 0
T1558 000:709.234 JLINK_WriteReg(R2, 0x000000FF)
T1558 000:709.240 - 0.009ms returns 0
T1558 000:709.248 JLINK_WriteReg(R3, 0x00000000)
T1558 000:709.254 - 0.009ms returns 0
T1558 000:709.262 JLINK_WriteReg(R4, 0x00000000)
T1558 000:709.268 - 0.009ms returns 0
T1558 000:709.276 JLINK_WriteReg(R5, 0x00000000)
T1558 000:709.282 - 0.009ms returns 0
T1558 000:709.290 JLINK_WriteReg(R6, 0x00000000)
T1558 000:709.296 - 0.009ms returns 0
T1558 000:709.303 JLINK_WriteReg(R7, 0x00000000)
T1558 000:709.310 - 0.009ms returns 0
T1558 000:709.317 JLINK_WriteReg(R8, 0x00000000)
T1558 000:709.324 - 0.009ms returns 0
T1558 000:709.331 JLINK_WriteReg(R9, 0x20000388)
T1558 000:709.337 - 0.009ms returns 0
T1558 000:709.345 JLINK_WriteReg(R10, 0x00000000)
T1558 000:709.351 - 0.009ms returns 0
T1558 000:709.359 JLINK_WriteReg(R11, 0x00000000)
T1558 000:709.365 - 0.009ms returns 0
T1558 000:709.373 JLINK_WriteReg(R12, 0x00000000)
T1558 000:709.379 - 0.009ms returns 0
T1558 000:709.387 JLINK_WriteReg(R13 (SP), 0x20001000)
T1558 000:709.394 - 0.009ms returns 0
T1558 000:709.401 JLINK_WriteReg(R14, 0x20000001)
T1558 000:709.407 - 0.009ms returns 0
T1558 000:709.415 JLINK_WriteReg(R15 (PC), 0x20000020)
T1558 000:709.421 - 0.009ms returns 0
T1558 000:709.429 JLINK_WriteReg(XPSR, 0x01000000)
T1558 000:709.435 - 0.009ms returns 0
T1558 000:709.443 JLINK_WriteReg(MSP, 0x20001000)
T1558 000:709.449 - 0.009ms returns 0
T1558 000:709.457 JLINK_WriteReg(PSP, 0x20001000)
T1558 000:709.463 - 0.009ms returns 0
T1558 000:709.471 JLINK_WriteReg(CFBP, 0x00000000)
T1558 000:709.477 - 0.009ms returns 0
T1558 000:709.485 JLINK_SetBPEx(Addr = 0x20000000, Type = 0xFFFFFFF2)
T1558 000:709.492 - 0.010ms returns 0x0000000A
T1558 000:709.500 JLINK_Go()
T1558 000:709.511   CPU_ReadMem(4 bytes @ 0xE0001000)
T1558 000:709.885   CPU_WriteMem(4 bytes @ 0xE0001000)
T1558 000:712.776 - 3.284ms
T1558 000:712.793 JLINK_IsHalted()
T1558 000:715.026   CPU_ReadMem(2 bytes @ 0x20000000)
T1558 000:715.574 - 2.789ms returns TRUE
T1558 000:715.591 JLINK_ReadReg(R15 (PC))
T1558 000:715.600 - 0.013ms returns 0x20000000
T1558 000:715.609 JLINK_ClrBPEx(BPHandle = 0x0000000A)
T1558 000:715.617 - 0.010ms returns 0x00
T1558 000:715.625 JLINK_ReadReg(R0)
T1558 000:715.632 - 0.010ms returns 0x00000001
T1558 000:715.641 JLINK_HasError()
T1558 000:715.650 JLINK_WriteReg(R0, 0x00000800)
T1558 000:715.657 - 0.010ms returns 0
T1558 000:715.666 JLINK_WriteReg(R1, 0x00000200)
T1558 000:715.673 - 0.010ms returns 0
T1558 000:715.681 JLINK_WriteReg(R2, 0x000000FF)
T1558 000:715.688 - 0.010ms returns 0
T1558 000:715.696 JLINK_WriteReg(R3, 0x00000000)
T1558 000:715.703 - 0.010ms returns 0
T1558 000:715.711 JLINK_WriteReg(R4, 0x00000000)
T1558 000:715.718 - 0.011ms returns 0
T1558 000:715.730 JLINK_WriteReg(R5, 0x00000000)
T1558 000:715.736 - 0.010ms returns 0
T1558 000:715.745 JLINK_WriteReg(R6, 0x00000000)
T1558 000:715.752 - 0.010ms returns 0
T1558 000:715.760 JLINK_WriteReg(R7, 0x00000000)
T1558 000:715.767 - 0.010ms returns 0
T1558 000:715.775 JLINK_WriteReg(R8, 0x00000000)
T1558 000:715.782 - 0.009ms returns 0
T1558 000:715.790 JLINK_WriteReg(R9, 0x20000388)
T1558 000:715.797 - 0.010ms returns 0
T1558 000:715.805 JLINK_WriteReg(R10, 0x00000000)
T1558 000:715.812 - 0.010ms returns 0
T1558 000:715.820 JLINK_WriteReg(R11, 0x00000000)
T1558 000:715.827 - 0.010ms returns 0
T1558 000:715.835 JLINK_WriteReg(R12, 0x00000000)
T1558 000:715.842 - 0.010ms returns 0
T1558 000:715.850 JLINK_WriteReg(R13 (SP), 0x20001000)
T1558 000:715.857 - 0.010ms returns 0
T1558 000:715.866 JLINK_WriteReg(R14, 0x20000001)
T1558 000:715.872 - 0.010ms returns 0
T1558 000:715.881 JLINK_WriteReg(R15 (PC), 0x2000011C)
T1558 000:715.887 - 0.010ms returns 0
T1558 000:715.896 JLINK_WriteReg(XPSR, 0x01000000)
T1558 000:715.902 - 0.010ms returns 0
T1558 000:715.911 JLINK_WriteReg(MSP, 0x20001000)
T1558 000:715.917 - 0.009ms returns 0
T1558 000:715.926 JLINK_WriteReg(PSP, 0x20001000)
T1558 000:715.932 - 0.010ms returns 0
T1558 000:715.941 JLINK_WriteReg(CFBP, 0x00000000)
T1558 000:715.948 - 0.010ms returns 0
T1558 000:715.956 JLINK_SetBPEx(Addr = 0x20000000, Type = 0xFFFFFFF2)
T1558 000:715.963 - 0.010ms returns 0x0000000B
T1558 000:715.972 JLINK_Go()
T1558 000:715.984   CPU_ReadMem(4 bytes @ 0xE0001000)
T1558 000:716.380   CPU_WriteMem(4 bytes @ 0xE0001000)
T1558 000:719.125 - 3.160ms
T1558 000:719.141 JLINK_IsHalted()
T1558 000:719.464 - 0.328ms returns FALSE
T1558 000:719.478 JLINK_HasError()
T1558 000:729.365 JLINK_IsHalted()
T1558 000:731.931   CPU_ReadMem(2 bytes @ 0x20000000)
T1558 000:732.380 - 3.026ms returns TRUE
T1558 000:732.401 JLINK_ReadReg(R15 (PC))
T1558 000:732.413 - 0.015ms returns 0x20000000
T1558 000:732.422 JLINK_ClrBPEx(BPHandle = 0x0000000B)
T1558 000:732.430 - 0.010ms returns 0x00
T1558 000:732.438 JLINK_ReadReg(R0)
T1558 000:732.446 - 0.010ms returns 0x00000000
T1558 000:733.208 JLINK_HasError()
T1558 000:733.222 JLINK_WriteReg(R0, 0x00000A00)
T1558 000:733.231 - 0.012ms returns 0
T1558 000:733.240 JLINK_WriteReg(R1, 0x00000200)
T1558 000:733.247 - 0.010ms returns 0
T1558 000:733.256 JLINK_WriteReg(R2, 0x000000FF)
T1558 000:733.263 - 0.010ms returns 0
T1558 000:733.271 JLINK_WriteReg(R3, 0x00000000)
T1558 000:733.278 - 0.010ms returns 0
T1558 000:733.286 JLINK_WriteReg(R4, 0x00000000)
T1558 000:733.293 - 0.010ms returns 0
T1558 000:733.302 JLINK_WriteReg(R5, 0x00000000)
T1558 000:733.308 - 0.010ms returns 0
T1558 000:733.317 JLINK_WriteReg(R6, 0x00000000)
T1558 000:733.323 - 0.009ms returns 0
T1558 000:733.332 JLINK_WriteReg(R7, 0x00000000)
T1558 000:733.338 - 0.009ms returns 0
T1558 000:733.347 JLINK_WriteReg(R8, 0x00000000)
T1558 000:733.353 - 0.010ms returns 0
T1558 000:733.362 JLINK_WriteReg(R9, 0x20000388)
T1558 000:733.368 - 0.010ms returns 0
T1558 000:733.377 JLINK_WriteReg(R10, 0x00000000)
T1558 000:733.383 - 0.010ms returns 0
T1558 000:733.392 JLINK_WriteReg(R11, 0x00000000)
T1558 000:733.398 - 0.009ms returns 0
T1558 000:733.407 JLINK_WriteReg(R12, 0x00000000)
T1558 000:733.413 - 0.009ms returns 0
T1558 000:733.422 JLINK_WriteReg(R13 (SP), 0x20001000)
T1558 000:733.429 - 0.010ms returns 0
T1558 000:733.437 JLINK_WriteReg(R14, 0x20000001)
T1558 000:733.444 - 0.010ms returns 0
T1558 000:733.452 JLINK_WriteReg(R15 (PC), 0x20000020)
T1558 000:733.459 - 0.010ms returns 0
T1558 000:733.468 JLINK_WriteReg(XPSR, 0x01000000)
T1558 000:733.475 - 0.010ms returns 0
T1558 000:733.483 JLINK_WriteReg(MSP, 0x20001000)
T1558 000:733.490 - 0.010ms returns 0
T1558 000:733.498 JLINK_WriteReg(PSP, 0x20001000)
T1558 000:733.505 - 0.010ms returns 0
T1558 000:733.513 JLINK_WriteReg(CFBP, 0x00000000)
T1558 000:733.520 - 0.010ms returns 0
T1558 000:733.528 JLINK_SetBPEx(Addr = 0x20000000, Type = 0xFFFFFFF2)
T1558 000:733.539 - 0.016ms returns 0x0000000C
T1558 000:733.550 JLINK_Go()
T1558 000:733.563   CPU_ReadMem(4 bytes @ 0xE0001000)
T1558 000:733.951   CPU_WriteMem(4 bytes @ 0xE0001000)
T1558 000:736.769 - 3.228ms
T1558 000:736.787 JLINK_IsHalted()
T1558 000:738.995   CPU_ReadMem(2 bytes @ 0x20000000)
T1558 000:739.429 - 2.651ms returns TRUE
T1558 000:739.447 JLINK_ReadReg(R15 (PC))
T1558 000:739.457 - 0.013ms returns 0x20000000
T1558 000:739.467 JLINK_ClrBPEx(BPHandle = 0x0000000C)
T1558 000:739.474 - 0.011ms returns 0x00
T1558 000:739.484 JLINK_ReadReg(R0)
T1558 000:739.492 - 0.011ms returns 0x00000001
T1558 000:739.501 JLINK_HasError()
T1558 000:739.511 JLINK_WriteReg(R0, 0x00000A00)
T1558 000:739.519 - 0.011ms returns 0
T1558 000:739.528 JLINK_WriteReg(R1, 0x00000200)
T1558 000:739.536 - 0.011ms returns 0
T1558 000:739.545 JLINK_WriteReg(R2, 0x000000FF)
T1558 000:739.552 - 0.010ms returns 0
T1558 000:739.562 JLINK_WriteReg(R3, 0x00000000)
T1558 000:739.569 - 0.011ms returns 0
T1558 000:739.578 JLINK_WriteReg(R4, 0x00000000)
T1558 000:739.586 - 0.011ms returns 0
T1558 000:739.595 JLINK_WriteReg(R5, 0x00000000)
T1558 000:739.602 - 0.011ms returns 0
T1558 000:739.611 JLINK_WriteReg(R6, 0x00000000)
T1558 000:739.619 - 0.011ms returns 0
T1558 000:739.628 JLINK_WriteReg(R7, 0x00000000)
T1558 000:739.636 - 0.011ms returns 0
T1558 000:739.645 JLINK_WriteReg(R8, 0x00000000)
T1558 000:739.652 - 0.011ms returns 0
T1558 000:739.661 JLINK_WriteReg(R9, 0x20000388)
T1558 000:739.669 - 0.011ms returns 0
T1558 000:739.678 JLINK_WriteReg(R10, 0x00000000)
T1558 000:739.685 - 0.011ms returns 0
T1558 000:739.695 JLINK_WriteReg(R11, 0x00000000)
T1558 000:739.702 - 0.010ms returns 0
T1558 000:739.711 JLINK_WriteReg(R12, 0x00000000)
T1558 000:739.718 - 0.011ms returns 0
T1558 000:739.728 JLINK_WriteReg(R13 (SP), 0x20001000)
T1558 000:739.735 - 0.011ms returns 0
T1558 000:739.745 JLINK_WriteReg(R14, 0x20000001)
T1558 000:739.752 - 0.011ms returns 0
T1558 000:739.761 JLINK_WriteReg(R15 (PC), 0x2000011C)
T1558 000:739.769 - 0.011ms returns 0
T1558 000:739.778 JLINK_WriteReg(XPSR, 0x01000000)
T1558 000:739.785 - 0.011ms returns 0
T1558 000:739.795 JLINK_WriteReg(MSP, 0x20001000)
T1558 000:739.802 - 0.010ms returns 0
T1558 000:739.811 JLINK_WriteReg(PSP, 0x20001000)
T1558 000:739.819 - 0.010ms returns 0
T1558 000:739.828 JLINK_WriteReg(CFBP, 0x00000000)
T1558 000:739.835 - 0.011ms returns 0
T1558 000:739.844 JLINK_SetBPEx(Addr = 0x20000000, Type = 0xFFFFFFF2)
T1558 000:739.853 - 0.012ms returns 0x0000000D
T1558 000:739.862 JLINK_Go()
T1558 000:739.875   CPU_ReadMem(4 bytes @ 0xE0001000)
T1558 000:740.301   CPU_WriteMem(4 bytes @ 0xE0001000)
T1558 000:743.028 - 3.178ms
T1558 000:743.051 JLINK_IsHalted()
T1558 000:743.492 - 0.455ms returns FALSE
T1558 000:743.515 JLINK_HasError()
T1558 000:746.624 JLINK_IsHalted()
T1558 000:749.111   CPU_ReadMem(2 bytes @ 0x20000000)
T1558 000:749.707 - 3.104ms returns TRUE
T1558 000:749.742 JLINK_ReadReg(R15 (PC))
T1558 000:749.757 - 0.019ms returns 0x20000000
T1558 000:749.778 JLINK_ClrBPEx(BPHandle = 0x0000000D)
T1558 000:749.788 - 0.014ms returns 0x00
T1558 000:749.799 JLINK_ReadReg(R0)
T1558 000:749.807 - 0.013ms returns 0x00000000
T1558 000:750.777 JLINK_HasError()
T1558 000:750.799 JLINK_WriteReg(R0, 0x00000C00)
T1558 000:750.812 - 0.017ms returns 0
T1558 000:750.823 JLINK_WriteReg(R1, 0x00000200)
T1558 000:750.832 - 0.012ms returns 0
T1558 000:750.842 JLINK_WriteReg(R2, 0x000000FF)
T1558 000:750.850 - 0.012ms returns 0
T1558 000:750.861 JLINK_WriteReg(R3, 0x00000000)
T1558 000:750.869 - 0.012ms returns 0
T1558 000:750.879 JLINK_WriteReg(R4, 0x00000000)
T1558 000:750.887 - 0.012ms returns 0
T1558 000:750.898 JLINK_WriteReg(R5, 0x00000000)
T1558 000:750.906 - 0.012ms returns 0
T1558 000:750.916 JLINK_WriteReg(R6, 0x00000000)
T1558 000:750.924 - 0.012ms returns 0
T1558 000:750.935 JLINK_WriteReg(R7, 0x00000000)
T1558 000:750.943 - 0.012ms returns 0
T1558 000:750.953 JLINK_WriteReg(R8, 0x00000000)
T1558 000:750.961 - 0.016ms returns 0
T1558 000:750.978 JLINK_WriteReg(R9, 0x20000388)
T1558 000:750.986 - 0.012ms returns 0
T1558 000:750.997 JLINK_WriteReg(R10, 0x00000000)
T1558 000:751.005 - 0.012ms returns 0
T1558 000:751.015 JLINK_WriteReg(R11, 0x00000000)
T1558 000:751.023 - 0.012ms returns 0
T1558 000:751.033 JLINK_WriteReg(R12, 0x00000000)
T1558 000:751.042 - 0.012ms returns 0
T1558 000:751.052 JLINK_WriteReg(R13 (SP), 0x20001000)
T1558 000:751.061 - 0.013ms returns 0
T1558 000:751.071 JLINK_WriteReg(R14, 0x20000001)
T1558 000:751.079 - 0.012ms returns 0
T1558 000:751.090 JLINK_WriteReg(R15 (PC), 0x20000020)
T1558 000:751.098 - 0.012ms returns 0
T1558 000:751.108 JLINK_WriteReg(XPSR, 0x01000000)
T1558 000:751.117 - 0.012ms returns 0
T1558 000:751.127 JLINK_WriteReg(MSP, 0x20001000)
T1558 000:751.135 - 0.012ms returns 0
T1558 000:751.145 JLINK_WriteReg(PSP, 0x20001000)
T1558 000:751.153 - 0.012ms returns 0
T1558 000:751.163 JLINK_WriteReg(CFBP, 0x00000000)
T1558 000:751.172 - 0.012ms returns 0
T1558 000:751.182 JLINK_SetBPEx(Addr = 0x20000000, Type = 0xFFFFFFF2)
T1558 000:751.192 - 0.014ms returns 0x0000000E
T1558 000:751.202 JLINK_Go()
T1558 000:751.220   CPU_ReadMem(4 bytes @ 0xE0001000)
T1558 000:752.055   CPU_WriteMem(4 bytes @ 0xE0001000)
T1558 000:755.010 - 3.819ms
T1558 000:755.033 JLINK_IsHalted()
T1558 000:757.248   CPU_ReadMem(2 bytes @ 0x20000000)
T1558 000:757.646 - 2.620ms returns TRUE
T1558 000:757.661 JLINK_ReadReg(R15 (PC))
T1558 000:757.670 - 0.012ms returns 0x20000000
T1558 000:757.678 JLINK_ClrBPEx(BPHandle = 0x0000000E)
T1558 000:757.684 - 0.009ms returns 0x00
T1558 000:757.692 JLINK_ReadReg(R0)
T1558 000:757.698 - 0.008ms returns 0x00000001
T1558 000:757.706 JLINK_HasError()
T1558 000:757.714 JLINK_WriteReg(R0, 0x00000C00)
T1558 000:757.720 - 0.009ms returns 0
T1558 000:757.728 JLINK_WriteReg(R1, 0x00000200)
T1558 000:757.734 - 0.008ms returns 0
T1558 000:757.741 JLINK_WriteReg(R2, 0x000000FF)
T1558 000:757.746 - 0.008ms returns 0
T1558 000:757.753 JLINK_WriteReg(R3, 0x00000000)
T1558 000:757.759 - 0.008ms returns 0
T1558 000:757.766 JLINK_WriteReg(R4, 0x00000000)
T1558 000:757.772 - 0.008ms returns 0
T1558 000:757.779 JLINK_WriteReg(R5, 0x00000000)
T1558 000:757.785 - 0.008ms returns 0
T1558 000:757.792 JLINK_WriteReg(R6, 0x00000000)
T1558 000:757.798 - 0.008ms returns 0
T1558 000:757.805 JLINK_WriteReg(R7, 0x00000000)
T1558 000:757.810 - 0.008ms returns 0
T1558 000:757.817 JLINK_WriteReg(R8, 0x00000000)
T1558 000:757.823 - 0.008ms returns 0
T1558 000:757.830 JLINK_WriteReg(R9, 0x20000388)
T1558 000:757.836 - 0.008ms returns 0
T1558 000:757.843 JLINK_WriteReg(R10, 0x00000000)
T1558 000:757.849 - 0.008ms returns 0
T1558 000:757.856 JLINK_WriteReg(R11, 0x00000000)
T1558 000:757.862 - 0.008ms returns 0
T1558 000:757.869 JLINK_WriteReg(R12, 0x00000000)
T1558 000:757.875 - 0.008ms returns 0
T1558 000:757.882 JLINK_WriteReg(R13 (SP), 0x20001000)
T1558 000:757.888 - 0.008ms returns 0
T1558 000:757.895 JLINK_WriteReg(R14, 0x20000001)
T1558 000:757.901 - 0.008ms returns 0
T1558 000:757.908 JLINK_WriteReg(R15 (PC), 0x2000011C)
T1558 000:757.914 - 0.008ms returns 0
T1558 000:757.921 JLINK_WriteReg(XPSR, 0x01000000)
T1558 000:757.926 - 0.008ms returns 0
T1558 000:757.934 JLINK_WriteReg(MSP, 0x20001000)
T1558 000:757.939 - 0.008ms returns 0
T1558 000:757.946 JLINK_WriteReg(PSP, 0x20001000)
T1558 000:757.952 - 0.008ms returns 0
T1558 000:757.959 JLINK_WriteReg(CFBP, 0x00000000)
T1558 000:757.965 - 0.008ms returns 0
T1558 000:757.972 JLINK_SetBPEx(Addr = 0x20000000, Type = 0xFFFFFFF2)
T1558 000:757.979 - 0.009ms returns 0x0000000F
T1558 000:757.990 JLINK_Go()
T1558 000:758.000   CPU_ReadMem(4 bytes @ 0xE0001000)
T1558 000:758.371   CPU_WriteMem(4 bytes @ 0xE0001000)
T1558 000:761.099 - 3.116ms
T1558 000:761.113 JLINK_IsHalted()
T1558 000:761.442 - 0.336ms returns FALSE
T1558 000:761.457 JLINK_HasError()
T1558 000:764.978 JLINK_IsHalted()
T1558 000:767.100   CPU_ReadMem(2 bytes @ 0x20000000)
T1558 000:767.499 - 2.528ms returns TRUE
T1558 000:767.515 JLINK_ReadReg(R15 (PC))
T1558 000:767.525 - 0.012ms returns 0x20000000
T1558 000:767.533 JLINK_ClrBPEx(BPHandle = 0x0000000F)
T1558 000:767.539 - 0.009ms returns 0x00
T1558 000:767.546 JLINK_ReadReg(R0)
T1558 000:767.552 - 0.008ms returns 0x00000000
T1558 000:768.172 JLINK_HasError()
T1558 000:768.183 JLINK_WriteReg(R0, 0x00000E00)
T1558 000:768.191 - 0.010ms returns 0
T1558 000:768.198 JLINK_WriteReg(R1, 0x00000200)
T1558 000:768.204 - 0.008ms returns 0
T1558 000:768.212 JLINK_WriteReg(R2, 0x000000FF)
T1558 000:768.217 - 0.008ms returns 0
T1558 000:768.225 JLINK_WriteReg(R3, 0x00000000)
T1558 000:768.230 - 0.008ms returns 0
T1558 000:768.237 JLINK_WriteReg(R4, 0x00000000)
T1558 000:768.243 - 0.008ms returns 0
T1558 000:768.250 JLINK_WriteReg(R5, 0x00000000)
T1558 000:768.256 - 0.008ms returns 0
T1558 000:768.263 JLINK_WriteReg(R6, 0x00000000)
T1558 000:768.269 - 0.008ms returns 0
T1558 000:768.276 JLINK_WriteReg(R7, 0x00000000)
T1558 000:768.282 - 0.008ms returns 0
T1558 000:768.289 JLINK_WriteReg(R8, 0x00000000)
T1558 000:768.294 - 0.008ms returns 0
T1558 000:768.301 JLINK_WriteReg(R9, 0x20000388)
T1558 000:768.307 - 0.008ms returns 0
T1558 000:768.314 JLINK_WriteReg(R10, 0x00000000)
T1558 000:768.320 - 0.008ms returns 0
T1558 000:768.327 JLINK_WriteReg(R11, 0x00000000)
T1558 000:768.333 - 0.008ms returns 0
T1558 000:768.340 JLINK_WriteReg(R12, 0x00000000)
T1558 000:768.346 - 0.008ms returns 0
T1558 000:768.353 JLINK_WriteReg(R13 (SP), 0x20001000)
T1558 000:768.359 - 0.009ms returns 0
T1558 000:768.366 JLINK_WriteReg(R14, 0x20000001)
T1558 000:768.372 - 0.008ms returns 0
T1558 000:768.379 JLINK_WriteReg(R15 (PC), 0x20000020)
T1558 000:768.385 - 0.008ms returns 0
T1558 000:768.392 JLINK_WriteReg(XPSR, 0x01000000)
T1558 000:768.397 - 0.008ms returns 0
T1558 000:768.404 JLINK_WriteReg(MSP, 0x20001000)
T1558 000:768.410 - 0.012ms returns 0
